Freq [GHz],S12 Mag,S13 Mag,S14 Mag,S23 Mag,S24 Mag,S34 Mag,S12 Phase,S13 Phase,S14 Phase,S23 Phase,S24 Phase,S34 Phase,S11 Mag,S22 Mag,S33 Mag,S44 Mag,S11 Phase,S22 Phase,S33 Phase,S44 Phase,,Size
0.5,-37.18772365,-31.41888485,-34.1288557,-29.03781701,-33.33202684,-40.78979875,164.9262774,149.1380126,-143.8809737,-10.61459287,-102.0795359,-61.55337117,-0.331620119,-0.204847834,-0.397357212,-0.219184016,-13.93501204,-23.02312934,-21.88240782,-17.09515735,,20
0.5058,-36.52966918,-31.6478377,-32.65761256,-32.23952436,-34.75497397,-41.21104285,156.2044989,146.7627635,-145.7477713,-27.15913694,-111.1240661,-62.74173305,-0.263458785,-0.195931041,-0.454456266,-0.201554754,-14.19213981,-23.26713729,-22.6901635,-17.71560224,,20
0.5116,-35.77620236,-31.91752643,-31.3265016,-34.76812999,-36.35321215,-42.01622736,145.86652,144.6367982,-149.3660672,-29.60394199,-120.0310758,-70.3963108,-0.224686039,-0.184202925,-0.533002449,-0.191447267,-14.69893769,-23.57930884,-23.31076479,-18.26922465,,20
0.5174,-34.78875068,-31.9199465,-29.91616876,-36.36195893,-37.89314929,-43.35495725,136.0363779,142.4894741,-154.2531161,-31.4571219,-128.0761703,-72.34261381,-0.193857731,-0.179146941,-0.634685651,-0.190974421,-15.25767904,-23.90086197,-23.77338666,-18.98611551,,20
0.5232,-33.95571134,-31.92294149,-28.48887741,-37.7327085,-39.60375097,-45.04649934,125.6170789,139.3954809,-161.3967893,-30.63669661,-135.5403493,-71.79739841,-0.188661306,-0.178597702,-0.805936182,-0.194008645,-15.60182093,-24.10957428,-23.8183537,-19.46358563,,20
0.529,-33.06326505,-32.0641051,-27.23620222,-38.50046017,-41.07294733,-46.00548646,117.7462392,135.4028228,-170.9488765,-27.61229009,-144.091305,-66.48916582,-0.196225201,-0.192265458,-1.021786797,-0.238615643,-16.12351013,-24.36412622,-23.30266615,-20.22015835,,20
0.5348,-31.84172904,-32.11817866,-26.18379995,-38.72872413,-42.68805572,-46.31509379,111.6901424,132.010783,176.4723437,-26.15270896,-154.8730982,-59.12378458,-0.201309014,-0.215452997,-1.236186103,-0.310056382,-16.41720156,-24.63960013,-21.97210262,-20.90024019,,20
0.5406,-30.37226646,-31.89878004,-25.83847853,-38.27187357,-44.50753213,-46.70519882,104.4138872,127.7501338,161.7431628,-26.66041276,-168.0837914,-54.65742393,-0.210114009,-0.234127037,-1.327525702,-0.426694268,-16.78476928,-24.78319479,-19.4551522,-21.48772662,,20
0.5464,-28.87321706,-31.79393521,-26.45437554,-37.96116308,-46.43977202,-46.04022336,96.01085218,120.8691269,149.7596477,-32.46823679,177.293422,-47.88141305,-0.239689749,-0.253991307,-1.160045527,-0.598783511,-17.20994003,-25.00037305,-17.50150253,-21.76827426,,20
0.5522,-27.21178254,-32.16505432,-27.06399545,-37.78816259,-47.41319959,-44.59808918,86.92451639,113.299984,143.7105536,-42.2863544,160.4791984,-49.9524484,-0.274457902,-0.26523376,-0.950859448,-0.794559689,-17.55642236,-25.12181673,-16.67456638,-21.50112822,,20
0.558,-25.39954457,-32.64565719,-27.35714875,-39.26158684,-47.69216301,-44.3400306,75.38414395,108.0636545,139.9189443,-55.3523996,138.9727808,-55.60060641,-0.345436654,-0.273546245,-0.798711027,-0.94047826,-18.00958158,-25.34722254,-16.46008508,-20.21258184,,20
0.5638,-23.63696044,-32.9265664,-27.41952621,-41.90887621,-46.90961742,-44.93276743,59.58398955,101.5432436,137.0742462,-59.14814724,121.1658505,-62.61493653,-0.475867994,-0.277783352,-0.682775976,-0.893697368,-18.3076946,-25.60754085,-16.75095811,-18.64562098,,20
0.5696,-22.43008604,-33.22425596,-27.21471923,-44.97325046,-44.70022204,-45.3095754,38.28421762,92.08189737,135.8195599,-45.18286445,110.0186739,-64.89668524,-0.649579396,-0.287574364,-0.632853058,-0.751288455,-18.27101021,-25.85153638,-17.28877618,-17.9125536,,20
0.5754,-22.49216843,-34.37287684,-26.46721261,-43.63870975,-40.92340297,-45.57530661,13.946781,80.84293274,134.0161995,-18.6439516,95.47798792,-63.80764668,-0.784382627,-0.300429629,-0.637849449,-0.629055664,-17.29055032,-26.32479558,-18.05025598,-17.91886634,,20
0.5812,-24.06648181,-36.47213728,-25.46429361,-40.58365046,-38.05186939,-45.25180682,-6.190297655,70.76032733,129.9804998,-15.68668842,73.08431481,-66.51719014,-0.775918417,-0.322984101,-0.682401323,-0.544060862,-16.16046082,-26.77383776,-18.56905021,-18.01906275,,20
0.587,-26.14450817,-39.58050487,-24.21961161,-38.76379311,-36.1008485,-44.00209844,-16.7605101,63.3416846,123.1383904,-22.66093324,54.46857414,-72.32515481,-0.678326441,-0.364180417,-0.748494725,-0.459618431,-15.5843088,-27.43957902,-18.99472819,-18.27113825,,20
0.5928,-27.81144024,-44.07807584,-23.04815701,-37.87244569,-34.36743162,-43.68484187,-19.99090981,72.85373038,111.688465,-33.70237806,38.68245431,-87.09296871,-0.564936364,-0.442118517,-0.795617304,-0.393712426,-15.65348065,-27.94806987,-19.0494127,-18.76568359,,20
0.5986,-28.79969467,-46.01609896,-22.54015412,-37.63143729,-32.62120859,-43.90302526,-20.33647431,102.1034547,97.49094678,-40.97378317,23.51761791,-103.735893,-0.514700959,-0.521889673,-0.737540265,-0.33107628,-16.01927998,-28.21040134,-18.86009689,-19.11390691,,20
0.6044,-29.23215696,-45.16917508,-22.66250893,-37.83847348,-30.91919932,-44.63370136,-19.06839159,126.6880763,84.00126663,-47.88366106,7.448303674,-122.0395248,-0.484492026,-0.629240565,-0.634569058,-0.305179015,-16.39479888,-28.3047367,-19.21221741,-19.6127947,,20
0.6102,-29.05171444,-42.94084046,-23.08108511,-37.81313445,-29.41626224,-45.00052754,-18.4715781,140.7328988,73.3616367,-51.6204326,-11.63625889,-142.0345376,-0.462516448,-0.722267432,-0.533513799,-0.281593042,-16.82796996,-28.13404911,-19.95064668,-19.98867132,,20
0.616,-28.45712472,-39.99611025,-23.53472711,-37.32029525,-28.38291171,-44.88329028,-20.7209974,145.4409209,65.03822269,-51.39594424,-31.50751997,-162.7930975,-0.428323748,-0.788794706,-0.472010659,-0.255616411,-16.9514308,-27.77961299,-20.88424749,-20.47799821,,20
0.6218,-27.74354633,-38.25109476,-23.81254118,-36.0722707,-27.89297218,-44.53367503,-26.85594884,138.4559448,56.72215753,-55.53710926,-53.75978617,167.7459248,-0.370710458,-0.827715979,-0.436404147,-0.239511461,-17.18122422,-27.48816538,-21.87089975,-21.0055188,,20
0.6276,-27.28742086,-37.85956268,-24.10163054,-34.84800738,-28.20116686,-44.92591287,-34.93324803,129.6538804,49.48117943,-65.43412329,-74.19336231,137.5099264,-0.309233948,-0.82327974,-0.410784455,-0.212205731,-17.57995384,-27.02603579,-22.46787887,-21.2593612,,20
0.6334,-26.89806737,-37.88945081,-24.28694392,-34.2212594,-28.90823683,-44.35721917,-44.56995155,127.7606861,42.27137724,-81.64815086,-91.91338756,121.7046017,-0.268656854,-0.81077813,-0.389833499,-0.203276507,-18.08989914,-26.75783103,-23.13365562,-21.69059291,,20
0.6392,-26.91139416,-37.79877075,-24.40392748,-34.92359245,-29.75931808,-43.5263126,-56.03653012,126.7115322,34.4872411,-94.53431016,-105.424427,105.9190766,-0.248124855,-0.795201158,-0.391850443,-0.200572573,-18.5746647,-26.6679293,-23.60799389,-21.99856226,,20
0.645,-27.22660849,-37.72428242,-24.53526034,-35.8708589,-30.32845521,-42.71210381,-67.06914102,128.4898971,24.92445847,-106.2518413,-119.0502435,94.5773162,-0.243956931,-0.809901228,-0.413205743,-0.199183185,-19.03501355,-26.70595575,-24.07038653,-22.41606879,,20
0.6508,-27.79847489,-36.83422674,-24.92615922,-37.04932603,-31.14032479,-41.32259889,-78.93107371,127.2768976,13.71287661,-112.1753424,-132.8802921,84.20448352,-0.265657479,-0.802651428,-0.428732861,-0.193597075,-19.11259297,-26.75608769,-24.22895648,-22.72001595,,20
0.6566,-28.70664623,-36.49814259,-25.85421478,-38.04467007,-32.07061453,-40.57870285,-89.71903516,124.3745369,1.662359816,-116.2581741,-143.5740907,71.88088842,-0.265928287,-0.811671792,-0.429819942,-0.188294327,-19.35320019,-26.76561481,-24.03396485,-22.93269403,,20
0.6624,-29.8095774,-36.62073288,-27.50337105,-38.9532088,-32.86020381,-40.07616286,-98.90704246,120.8725386,-8.254650893,-119.1013261,-154.4769449,66.21029346,-0.280853593,-0.834617262,-0.418948431,-0.192073775,-19.52038534,-26.864015,-24.04806284,-23.34402986,,20
0.6682,-30.99260284,-36.77387797,-29.44730221,-39.85962438,-33.5270139,-39.096969,-106.8153193,121.9283778,-12.835013,-120.7120052,-163.8420015,61.86072268,-0.291652212,-0.841036543,-0.380582953,-0.191581448,-19.66029537,-26.98048236,-24.0902811,-23.61421482,,20
0.674,-32.1014069,-36.30734079,-31.32639655,-41.20640124,-34.01554857,-37.84156847,-113.60487,125.5368532,-12.31700473,-118.6186097,-174.4952485,56.70184623,-0.305892459,-0.84170811,-0.360709142,-0.199407229,-19.61417336,-27.16088065,-24.24145545,-24.00724515,,20
0.6798,-33.1217478,-35.5035554,-32.73703222,-41.73806807,-34.4837802,-36.71806463,-120.0053905,127.7522192,-6.99818044,-108.317329,174.5617681,51.45299638,-0.320103886,-0.841791006,-0.350304971,-0.203214256,-19.76845471,-27.46859636,-24.52522605,-24.40894809,,20
0.6856,-34.10015188,-34.49071815,-33.43147841,-40.69838295,-35.05431179,-35.35693706,-126.6846645,129.8989951,0.250461458,-97.55295226,163.5023982,44.15315753,-0.338064452,-0.820219718,-0.336824045,-0.210510403,-19.96520963,-27.81000387,-24.78349053,-24.73455975,,20
0.6914,-34.77025689,-33.0812211,-33.41216565,-39.10829758,-35.25576686,-34.28669208,-134.7915266,127.7140603,7.402435683,-94.5290889,153.104119,34.48223518,-0.35320406,-0.81078995,-0.349320596,-0.221361454,-20.06693299,-28.20773612,-25.15569307,-25.28049278,,20
0.6972,-35.70288455,-31.67703184,-32.58421357,-37.38979331,-35.49600027,-33.59620156,-145.1010009,124.6640236,12.09186888,-90.45489684,140.6119951,24.89995259,-0.36167353,-0.809653982,-0.375278845,-0.240603157,-20.24853378,-28.80702593,-25.61090124,-25.68076951,,20
0.703,-36.9682495,-30.2208539,-31.49838728,-34.65555778,-35.77561576,-33.2146625,-157.2904149,118.7375109,10.84018875,-91.81400577,129.2412602,15.76780815,-0.385569642,-0.814727992,-0.417606589,-0.271761726,-20.48630826,-29.23408519,-26.18769661,-26.32402549,,20
0.7088,-38.26378094,-29.00236732,-30.82534069,-32.04534201,-35.70937701,-32.54449611,-173.8283917,109.4091826,5.407275643,-100.4477682,115.8523128,7.029935894,-0.386003886,-0.799156755,-0.466256088,-0.31518611,-20.53358675,-29.71604583,-26.59731848,-26.86917532,,20
0.7146,-40.5748553,-28.00820333,-30.53746343,-29.76369941,-35.85220142,-32.28303921,165.2250139,99.64304597,-0.712420827,-112.6489131,100.7537558,-2.323378,-0.376015338,-0.752773799,-0.525558251,-0.369528166,-20.93384244,-30.19534552,-27.00155065,-27.34379764,,20
0.7204,-44.49569799,-27.24964386,-30.65591971,-27.85396282,-36.33627152,-32.07670255,134.8779522,87.19619368,-6.962975804,-128.1573492,85.32363032,-11.96457371,-0.361084306,-0.710707648,-0.551660879,-0.433592567,-21.29222807,-30.96179129,-27.41578896,-27.8869943,,20
0.7262,-50.77824375,-26.8856879,-31.02010373,-26.39451005,-37.20423492,-32.28958901,86.24091907,74.22944681,-12.87305431,-145.4715161,71.16256589,-21.30202818,-0.352894414,-0.703084242,-0.57657469,-0.529895021,-21.58885082,-31.87594183,-27.88594632,-28.17525102,,20
0.732,-50.11503776,-26.8199457,-31.75086061,-25.24883497,-38.14529705,-32.44956033,3.520758985,60.6299211,-16.43704414,-162.7648538,60.54990251,-27.97628688,-0.336581749,-0.73757569,-0.585911803,-0.622858935,-21.84091701,-32.62270299,-28.34437769,-28.1150904,,20
0.7378,-43.34122611,-27.23359033,-32.43129741,-24.29941321,-39.30198495,-32.62088176,-58.51716686,48.16079299,-16.23754418,178.8103395,51.2957105,-35.71653839,-0.291887171,-0.806253573,-0.582647753,-0.682311557,-21.97031532,-33.36176972,-28.99148211,-27.81044929,,20
0.7436,-40.17966798,-27.82472087,-32.53374576,-23.76279212,-40.2952204,-32.63463042,-95.55137689,36.59821344,-14.73989097,160.3440471,45.49466509,-43.98333289,-0.264859935,-0.908053403,-0.577689383,-0.674649192,-22.4220783,-33.69686077,-29.54496861,-27.25918691,,20
0.7494,-38.23488414,-28.46702989,-32.77533755,-23.43600917,-41.86485824,-33.25286715,-124.9805585,26.46966345,-15.20080444,142.1937336,42.85056086,-54.38574755,-0.244305288,-1.009296337,-0.587378301,-0.637568035,-22.87136461,-33.84567969,-30.52473696,-27.25921246,,20
0.7552,-37.01220318,-29.22119503,-33.00611336,-23.2961565,-43.0139434,-34.24227504,-151.1911864,16.80386828,-11.97427847,124.4502754,50.21373486,-60.49435907,-0.222522199,-1.075533711,-0.586254252,-0.590267188,-23.24842952,-33.5400763,-31.26349744,-27.36468933,,20
0.761,-36.1459111,-30.11524753,-32.43477205,-23.38999176,-42.23271571,-35.01912817,-175.7490767,6.963641832,-7.501609365,107.2102446,61.49833386,-66.59828079,-0.206575826,-1.130890061,-0.62009086,-0.575128862,-23.67870642,-33.14528316,-32.01642078,-27.54807057,,20
0.7668,-35.61885094,-31.21283231,-31.6304705,-23.72818058,-40.82163427,-36.02689402,163.8309582,-0.230638953,-7.178977044,91.15260734,66.80500433,-71.1988777,-0.2127397,-1.102357302,-0.628849527,-0.580107346,-23.95334642,-32.75435637,-32.75908568,-27.9754296,,20
0.7726,-35.06037732,-32.2434163,-30.51585461,-24.08840357,-38.92647667,-36.80816698,145.5073846,-6.640264411,-9.003010536,77.25458471,67.16079914,-74.66070672,-0.219784679,-1.063029709,-0.651715039,-0.60940255,-24.31463612,-32.62681736,-33.23207373,-27.96077804,,20
0.7784,-34.60535216,-33.02375439,-29.69599336,-24.45470899,-36.96729413,-37.71532554,128.3074017,-11.91753565,-13.94353961,63.69855655,65.6040098,-79.09128887,-0.258628113,-1.049543005,-0.68390895,-0.644091957,-24.68653892,-32.92410439,-33.90674398,-28.19124475,,20
0.7842,-34.43421422,-33.81394481,-29.1578869,-24.81180616,-34.85265651,-38.94350631,112.3740982,-18.55443198,-19.20486396,51.29171186,60.66274332,-85.13784479,-0.301760958,-1.050049584,-0.700455652,-0.650142367,-24.94705692,-33.05220982,-34.20879429,-28.03825226,,20
0.79,-34.58330698,-34.39178201,-28.61688972,-25.12738468,-32.89145209,-40.75021111,99.46732758,-23.82342277,-23.80937866,39.19109307,52.39432301,-87.9023737,-0.354009977,-1.069613761,-0.724016476,-0.646930076,-25.12168322,-33.25347909,-34.57736084,-28.12280226,,20
0.7958,-34.78495799,-34.75025081,-27.93170983,-25.54295094,-31.0525148,-42.42679016,90.82835038,-31.65610693,-29.9894955,26.67623407,42.14593467,-85.76869773,-0.396723627,-1.081627566,-0.738521641,-0.605281569,-25.05801499,-33.12941706,-34.73188334,-28.18945441,,20
0.8016,-34.69110797,-35.35333936,-27.44171316,-26.2594079,-29.47750031,-44.18625922,84.18202036,-42.06401879,-38.14672306,15.02424194,30.4722505,-88.00799512,-0.425290196,-1.031607027,-0.727939923,-0.576044139,-25.13499761,-32.81671383,-34.65762927,-28.39787761,,20
0.8074,-34.43435552,-36.43202222,-27.16122218,-27.15290431,-28.09727333,-48.27630678,79.93737765,-52.11401289,-47.69565402,5.661956456,17.09876896,-85.52832232,-0.443961603,-0.94280776,-0.731390393,-0.559107083,-25.17949633,-32.83009755,-34.73804657,-28.77525087,,20
0.8132,-34.01098974,-37.15179506,-27.20243463,-28.03492725,-27.01152337,-51.97557596,75.24043022,-59.54867765,-57.63953647,0.532069614,2.989840818,-44.64905109,-0.457386576,-0.839334096,-0.723326778,-0.54856529,-25.26474735,-33.08478468,-34.62513293,-29.15235105,,20
0.819,-33.44458705,-37.50367685,-27.64151053,-28.36499781,-26.06080414,-48.26196483,71.25799377,-70.86002505,-68.73707058,-3.480404907,-11.65526355,-17.70213848,-0.450959187,-0.768891573,-0.710124869,-0.56651216,-25.51238069,-33.64609292,-34.41466758,-29.52357896,,20
0.8248,-32.62499683,-37.83691912,-28.66691982,-28.58221123,-25.35702839,-46.10108495,66.58812686,-84.88202302,-78.69627278,-7.865952952,-29.03749446,-9.360697437,-0.434383047,-0.712654817,-0.704680285,-0.57183405,-25.71205097,-34.31959138,-34.29403262,-29.92545466,,20
0.8306,-31.89888391,-38.33398766,-30.17990352,-28.63574227,-25.21960639,-44.74872695,60.8575694,-99.71101358,-86.12661678,-11.2744217,-46.50355824,0.85082655,-0.4289209,-0.663804303,-0.674720124,-0.575247105,-26.0274217,-34.83115843,-33.95555392,-30.15229828,,20
0.8364,-31.19874989,-38.64723835,-32.14505071,-28.40566674,-25.46209821,-42.12245687,54.49006992,-113.7893817,-87.01936197,-14.71225,-62.74632473,7.704609224,-0.407054027,-0.6534131,-0.652307686,-0.587118225,-26.50908726,-35.41407333,-33.70513621,-30.43319834,,20
0.8422,-30.90263478,-38.44592945,-33.5522286,-28.04767783,-25.94040966,-39.64425258,47.95083466,-128.572959,-83.02028354,-19.05801247,-78.73955935,4.055474554,-0.406308373,-0.652218674,-0.62237731,-0.5856965,-26.79820903,-35.99392605,-33.61251187,-30.75055933,,20
0.848,-30.54139707,-38.19577435,-34.61788414,-27.49659577,-26.66905226,-38.18348534,44.97826742,-146.7289174,-75.73500325,-24.37341432,-94.16188038,-1.41774105,-0.404947146,-0.669720462,-0.596687303,-0.593483334,-27.18929878,-36.33328148,-33.53303068,-30.97326416,,20
0.8538,-29.83815292,-38.07504676,-34.78266028,-27.05080947,-27.8782142,-36.76589022,41.14672989,-162.5881474,-66.6446003,-32.32942041,-108.8452098,-8.010702685,-0.38661531,-0.689065688,-0.585224796,-0.597763144,-27.39193879,-36.78233195,-33.69774544,-31.37589911,,20
0.8596,-29.12610893,-37.88106204,-34.41486807,-26.88720588,-29.33550755,-36.39527234,36.75113427,-176.5970724,-59.01317204,-39.17882366,-121.0346464,-17.5913427,-0.368574475,-0.721852945,-0.577050972,-0.600616899,-27.57481416,-37.01033762,-33.79708606,-31.59091681,,20
0.8654,-28.33358832,-37.73895224,-33.53533509,-26.73419555,-30.83324585,-36.62556954,31.92315102,172.4229207,-54.35334152,-45.88391034,-131.6158337,-22.32571839,-0.349943937,-0.743328218,-0.593252298,-0.611582742,-28.12587937,-37.32280085,-34.2844221,-31.79244643,,20
0.8712,-27.62492083,-37.12293421,-32.77207111,-26.57651045,-32.52161455,-36.21128543,26.70083354,163.7893098,-52.14997663,-51.72146984,-141.7861709,-21.49163821,-0.330193153,-0.778365093,-0.613990837,-0.619419572,-28.45734819,-37.78063184,-34.88487833,-32.29365237,,20
0.877,-26.75173879,-36.39585112,-31.96911136,-26.33386625,-34.38073873,-35.48650195,21.4563434,155.2989998,-49.97890547,-56.9783232,-150.4194372,-25.13464088,-0.337526211,-0.827199889,-0.657105088,-0.648306952,-28.91308655,-38.10568471,-35.49841836,-32.59113564,,20
0.8828,-25.82301376,-35.72164348,-31.00830414,-25.77237297,-36.32895788,-35.19869114,15.91789928,145.6947249,-49.07840994,-62.22407587,-160.1233255,-31.75365187,-0.355173451,-0.899221377,-0.722138093,-0.68167834,-29.19807019,-38.64443715,-36.40932076,-32.99874137,,20
0.8886,-24.78199499,-35.4506841,-29.93127386,-25.09308398,-38.90765098,-35.54704403,8.94176148,136.65629,-48.50480656,-70.2438344,-174.3442564,-36.26578432,-0.40150967,-0.981914605,-0.795316188,-0.734130878,-29.66681289,-38.96139612,-37.16828853,-33.31544038,,20
0.8944,-23.65240476,-35.09718356,-28.79112888,-24.7911252,-42.97586059,-35.86473895,0.876677529,131.4978773,-50.21493456,-80.40752048,165.6356466,-37.62657608,-0.4166806,-1.058930913,-0.900731294,-0.803223303,-29.76451238,-39.30021814,-37.97980841,-33.45834601,,20
0.9002,-22.4981496,-34.71117453,-27.63944259,-24.69429521,-49.72422451,-35.9623871,-9.498075056,125.4033837,-53.04660178,-89.40562518,116.2852973,-36.36677561,-0.442626486,-1.142735125,-0.985370422,-0.87784941,-30.00793527,-39.81584501,-38.71393201,-33.55639109,,20
0.906,-21.44496684,-34.36706257,-26.49143869,-24.53676997,-47.92654082,-35.63020705,-22.90585794,121.5824139,-57.27974224,-98.11005158,21.91417361,-34.27613381,-0.472731259,-1.263348306,-1.080868467,-0.968047925,-30.22479631,-40.1915974,-39.48405886,-33.41865713,,20
0.9118,-20.83481969,-33.66993239,-25.56322892,-24.39779036,-42.59198507,-34.86140127,-37.60574545,118.3601467,-62.2594975,-107.1142238,-7.05364553,-36.21941795,-0.514525059,-1.358611191,-1.132442677,-1.001715995,-30.41575674,-40.50451977,-40.25452224,-33.00306785,,20
0.9176,-20.58367583,-32.81281266,-24.57094792,-24.32734298,-38.77600019,-34.56716093,-52.87545652,113.5145899,-67.18832436,-117.9349328,-19.40207744,-39.89320763,-0.570391895,-1.444040838,-1.165009791,-0.946799432,-30.83130829,-40.75399712,-40.98480624,-32.42702168,,20
0.9234,-20.61104478,-32.18513638,-23.55294701,-24.59633673,-36.24805683,-34.35807586,-67.82905065,107.7775185,-73.04915917,-128.7389585,-31.98503439,-41.81047343,-0.617657196,-1.572639194,-1.213885505,-0.862880493,-31.11474661,-40.75957434,-41.77869455,-32.39922546,,20
